<Qucs Dataset 0.0.20>
<indep time 100>
  +0.00000000000000000000e+00
  +1.01010101010101018687e-02
  +2.02020202020202037374e-02
  +3.03030303030303038714e-02
  +4.04040404040404074748e-02
  +5.05050505050505110782e-02
  +6.06060606060606077428e-02
  +7.07070707070707182851e-02
  +8.08080808080808149496e-02
  +9.09090909090909116141e-02
  +1.01010101010101022156e-01
  +1.11111111111111118821e-01
  +1.21212121212121215486e-01
  +1.31313131313131326028e-01
  +1.41414141414141436570e-01
  +1.51515151515151519357e-01
  +1.61616161616161629899e-01
  +1.71717171717171740442e-01
  +1.81818181818181823228e-01
  +1.91919191919191933771e-01
  +2.02020202020202044313e-01
  +2.12121212121212127100e-01
  +2.22222222222222237642e-01
  +2.32323232323232348184e-01
  +2.42424242424242430971e-01
  +2.52525252525252541513e-01
  +2.62626262626262652056e-01
  +2.72727272727272762598e-01
  +2.82828282828282873140e-01
  +2.92929292929292928171e-01
  +3.03030303030303038714e-01
  +3.13131313131313149256e-01
  +3.23232323232323259798e-01
  +3.33333333333333370341e-01
  +3.43434343434343480883e-01
  +3.53535353535353591425e-01
  +3.63636363636363646457e-01
  +3.73737373737373756999e-01
  +3.83838383838383867541e-01
  +3.93939393939393978084e-01
  +4.04040404040404088626e-01
  +4.14141414141414199168e-01
  +4.24242424242424254199e-01
  +4.34343434343434364742e-01
  +4.44444444444444475284e-01
  +4.54545454545454585826e-01
  +4.64646464646464696369e-01
  +4.74747474747474806911e-01
  +4.84848484848484861942e-01
  +4.94949494949494972484e-01
  +5.05050505050505083027e-01
  +5.15151515151515249080e-01
  +5.25252525252525304111e-01
  +5.35353535353535359143e-01
  +5.45454545454545525196e-01
  +5.55555555555555580227e-01
  +5.65656565656565746281e-01
  +5.75757575757575801312e-01
  +5.85858585858585856343e-01
  +5.95959595959596022396e-01
  +6.06060606060606077428e-01
  +6.16161616161616243481e-01
  +6.26262626262626298512e-01
  +6.36363636363636464566e-01
  +6.46464646464646519597e-01
  +6.56565656565656574628e-01
  +6.66666666666666740682e-01
  +6.76767676767676795713e-01
  +6.86868686868686961766e-01
  +6.96969696969697016797e-01
  +7.07070707070707182851e-01
  +7.17171717171717237882e-01
  +7.27272727272727292913e-01
  +7.37373737373737458967e-01
  +7.47474747474747513998e-01
  +7.57575757575757680051e-01
  +7.67676767676767735082e-01
  +7.77777777777777790114e-01
  +7.87878787878787956167e-01
  +7.97979797979798011198e-01
  +8.08080808080808177252e-01
  +8.18181818181818232283e-01
  +8.28282828282828398336e-01
  +8.38383838383838453368e-01
  +8.48484848484848508399e-01
  +8.58585858585858674452e-01
  +8.68686868686868729483e-01
  +8.78787878787878895537e-01
  +8.88888888888888950568e-01
  +8.98989898989899116621e-01
  +9.09090909090909171653e-01
  +9.19191919191919226684e-01
  +9.29292929292929392737e-01
  +9.39393939393939447768e-01
  +9.49494949494949613822e-01
  +9.59595959595959668853e-01
  +9.69696969696969723884e-01
  +9.79797979797979889938e-01
  +9.89898989898989944969e-01
  +1.00000000000000000000e+00
</indep>
<dep V2.It time>
  -1.73125041961894970922e-04
  -1.68764654950143475455e-04
  -1.64421825693210544488e-04
  -1.60114041233770838541e-04
  -1.55858647501170151069e-04
  -1.51672779465420397944e-04
  -1.47573292140662509645e-04
  -1.43576692715924032848e-04
  -1.39699074086459588094e-04
  -1.35956050053321334707e-04
  -1.32362692452088931720e-04
  -1.28933470463920933895e-04
  -1.25682192353300314436e-04
  -1.22621949867075217015e-04
  -1.19765065518680110775e-04
  -1.17123042969802503835e-04
  -1.14706520709289497978e-04
  -1.12525229215809348740e-04
  -1.10587951776756573431e-04
  -1.08902489121163380216e-04
  -1.07475628009027319391e-04
  -1.06313113903527828178e-04
  -1.05419627836169055128e-04
  -1.04798767558000443514e-04
  -1.04453033052809198672e-04
  -1.04383816470616125642e-04
  -1.04591396522005214550e-04
  -1.05074937355860605070e-04
  -1.05832491925027336738e-04
  -1.06861009826345499264e-04
  -1.08156349583489772926e-04
  -1.09713295323158531143e-04
  -1.11525577777465072877e-04
  -1.13585899527967172738e-04
  -1.15885964389687634102e-04
  -1.18416510816813177641e-04
  -1.21167349195560556394e-04
  -1.24127402874049875192e-04
  -1.27284752763975200513e-04
  -1.30626685334480225611e-04
  -1.34139743804987976753e-04
  -1.37809782330849185964e-04
  -1.41622022963627060060e-04
  -1.45561115156656614798e-04
  -1.49611197576273742939e-04
  -1.53755961969819659498e-04
  -1.57978718833247020175e-04
  -1.62262464613904274337e-04
  -1.66589950177896433574e-04
  -1.70943750266324957744e-04
  -1.75306333660728188694e-04
  -1.79660133775189464122e-04
  -1.83987619390860309646e-04
  -1.88271365248072401581e-04
  -1.92494122211787162171e-04
  -1.96638886727848276586e-04
  -2.00688969290359862929e-04
  -2.04628061644492997145e-04
  -2.08440302454118611252e-04
  -2.12110341169843895446e-04
  -2.15623399840276738261e-04
  -2.18965332617627724075e-04
  -2.22122682718038731015e-04
  -2.25082736607282315414e-04
  -2.27833575193643242916e-04
  -2.30364121821850776056e-04
  -2.32664186874806611311e-04
  -2.34724508803516257547e-04
  -2.36536791420013535383e-04
  -2.38093737303114651605e-04
  -2.39389077182492230559e-04
  -2.40417595182752108366e-04
  -2.41175149825867038943e-04
  -2.41658690707400355523e-04
  -2.41866270779371504793e-04
  -2.41797054190307761281e-04
  -2.41451319650912404457e-04
  -2.40830459311798810058e-04
  -2.39936973157808136354e-04
  -2.38774458941483098268e-04
  -2.37347597696229806012e-04
  -2.35662134887500021932e-04
  -2.33724857277888611049e-04
  -2.31543565599300077027e-04
  -2.29127043142221000459e-04
  -2.26485020388575116531e-04
  -2.23628135830569794822e-04
  -2.20567893133299621671e-04
  -2.17316614813596196889e-04
  -2.13887392621640203471e-04
  -2.10294034825131252731e-04
  -2.06551010608281039854e-04
  -2.02673391809515552730e-04
  -1.98676792232487680646e-04
  -1.94577304774773185468e-04
  -1.90391436627412164156e-04
  -1.86136042806224434251e-04
  -1.81828258282548080619e-04
  -1.77485428986687087489e-04
  -1.73125041961894998027e-04
</dep>
<dep V3.It time>
  +0.00000000000000000000e+00
  +0.00000000000000000000e+00
  +0.00000000000000000000e+00
  +0.00000000000000000000e+00
  +0.00000000000000000000e+00
  +0.00000000000000000000e+00
  +0.00000000000000000000e+00
  +0.00000000000000000000e+00
  +0.00000000000000000000e+00
  +0.00000000000000000000e+00
  +0.00000000000000000000e+00
  +0.00000000000000000000e+00
  +0.00000000000000000000e+00
  +0.00000000000000000000e+00
  +0.00000000000000000000e+00
  +0.00000000000000000000e+00
  +0.00000000000000000000e+00
  +0.00000000000000000000e+00
  +0.00000000000000000000e+00
  +0.00000000000000000000e+00
  +0.00000000000000000000e+00
  +0.00000000000000000000e+00
  +0.00000000000000000000e+00
  +0.00000000000000000000e+00
  +0.00000000000000000000e+00
  +0.00000000000000000000e+00
  +0.00000000000000000000e+00
  +0.00000000000000000000e+00
  +0.00000000000000000000e+00
  +0.00000000000000000000e+00
  +0.00000000000000000000e+00
  +0.00000000000000000000e+00
  +0.00000000000000000000e+00
  +0.00000000000000000000e+00
  +0.00000000000000000000e+00
  +0.00000000000000000000e+00
  +0.00000000000000000000e+00
  +0.00000000000000000000e+00
  +0.00000000000000000000e+00
  +0.00000000000000000000e+00
  +0.00000000000000000000e+00
  +0.00000000000000000000e+00
  +0.00000000000000000000e+00
  +0.00000000000000000000e+00
  +0.00000000000000000000e+00
  +0.00000000000000000000e+00
  +0.00000000000000000000e+00
  +0.00000000000000000000e+00
  +0.00000000000000000000e+00
  +0.00000000000000000000e+00
  +0.00000000000000000000e+00
  +0.00000000000000000000e+00
  +0.00000000000000000000e+00
  +0.00000000000000000000e+00
  +0.00000000000000000000e+00
  +0.00000000000000000000e+00
  +0.00000000000000000000e+00
  +0.00000000000000000000e+00
  +0.00000000000000000000e+00
  +0.00000000000000000000e+00
  +0.00000000000000000000e+00
  +0.00000000000000000000e+00
  +0.00000000000000000000e+00
  +0.00000000000000000000e+00
  +0.00000000000000000000e+00
  +0.00000000000000000000e+00
  +0.00000000000000000000e+00
  +0.00000000000000000000e+00
  +0.00000000000000000000e+00
  +0.00000000000000000000e+00
  +0.00000000000000000000e+00
  +0.00000000000000000000e+00
  +0.00000000000000000000e+00
  +0.00000000000000000000e+00
  +0.00000000000000000000e+00
  +0.00000000000000000000e+00
  +0.00000000000000000000e+00
  +0.00000000000000000000e+00
  +0.00000000000000000000e+00
  +0.00000000000000000000e+00
  +0.00000000000000000000e+00
  +0.00000000000000000000e+00
  +0.00000000000000000000e+00
  +0.00000000000000000000e+00
  +0.00000000000000000000e+00
  +0.00000000000000000000e+00
  +0.00000000000000000000e+00
  +0.00000000000000000000e+00
  +0.00000000000000000000e+00
  +0.00000000000000000000e+00
  +0.00000000000000000000e+00
  +0.00000000000000000000e+00
  +0.00000000000000000000e+00
  +0.00000000000000000000e+00
  +0.00000000000000000000e+00
  +0.00000000000000000000e+00
  +0.00000000000000000000e+00
  +0.00000000000000000000e+00
  +0.00000000000000000000e+00
  +0.00000000000000000000e+00
</dep>
<dep V1.It time>
  +0.00000000000000000000e+00
  +0.00000000000000000000e+00
  +0.00000000000000000000e+00
  +0.00000000000000000000e+00
  +0.00000000000000000000e+00
  +0.00000000000000000000e+00
  +0.00000000000000000000e+00
  +0.00000000000000000000e+00
  +0.00000000000000000000e+00
  +0.00000000000000000000e+00
  +0.00000000000000000000e+00
  +0.00000000000000000000e+00
  +0.00000000000000000000e+00
  +0.00000000000000000000e+00
  +0.00000000000000000000e+00
  +0.00000000000000000000e+00
  +0.00000000000000000000e+00
  +0.00000000000000000000e+00
  +0.00000000000000000000e+00
  +0.00000000000000000000e+00
  +0.00000000000000000000e+00
  +0.00000000000000000000e+00
  +0.00000000000000000000e+00
  +0.00000000000000000000e+00
  +0.00000000000000000000e+00
  +0.00000000000000000000e+00
  +0.00000000000000000000e+00
  +0.00000000000000000000e+00
  +0.00000000000000000000e+00
  +0.00000000000000000000e+00
  +0.00000000000000000000e+00
  +0.00000000000000000000e+00
  +0.00000000000000000000e+00
  +0.00000000000000000000e+00
  +0.00000000000000000000e+00
  +0.00000000000000000000e+00
  +0.00000000000000000000e+00
  +0.00000000000000000000e+00
  +0.00000000000000000000e+00
  +0.00000000000000000000e+00
  +0.00000000000000000000e+00
  +0.00000000000000000000e+00
  +0.00000000000000000000e+00
  +0.00000000000000000000e+00
  +0.00000000000000000000e+00
  +0.00000000000000000000e+00
  +0.00000000000000000000e+00
  +0.00000000000000000000e+00
  +0.00000000000000000000e+00
  +0.00000000000000000000e+00
  +0.00000000000000000000e+00
  +0.00000000000000000000e+00
  +0.00000000000000000000e+00
  +0.00000000000000000000e+00
  +0.00000000000000000000e+00
  +0.00000000000000000000e+00
  +0.00000000000000000000e+00
  +0.00000000000000000000e+00
  +0.00000000000000000000e+00
  +0.00000000000000000000e+00
  +0.00000000000000000000e+00
  +0.00000000000000000000e+00
  +0.00000000000000000000e+00
  +0.00000000000000000000e+00
  +0.00000000000000000000e+00
  +0.00000000000000000000e+00
  +0.00000000000000000000e+00
  +0.00000000000000000000e+00
  +0.00000000000000000000e+00
  +0.00000000000000000000e+00
  +0.00000000000000000000e+00
  +0.00000000000000000000e+00
  +0.00000000000000000000e+00
  +0.00000000000000000000e+00
  +0.00000000000000000000e+00
  +0.00000000000000000000e+00
  +0.00000000000000000000e+00
  +0.00000000000000000000e+00
  +0.00000000000000000000e+00
  +0.00000000000000000000e+00
  +0.00000000000000000000e+00
  +0.00000000000000000000e+00
  +0.00000000000000000000e+00
  +0.00000000000000000000e+00
  +0.00000000000000000000e+00
  +0.00000000000000000000e+00
  +0.00000000000000000000e+00
  +0.00000000000000000000e+00
  +0.00000000000000000000e+00
  +0.00000000000000000000e+00
  +0.00000000000000000000e+00
  +0.00000000000000000000e+00
  +0.00000000000000000000e+00
  +0.00000000000000000000e+00
  +0.00000000000000000000e+00
  +0.00000000000000000000e+00
  +0.00000000000000000000e+00
  +0.00000000000000000000e+00
  +0.00000000000000000000e+00
  +0.00000000000000000000e+00
</dep>
<dep _net0.Vt time>
  +2.22999932860968064219e+00
  +2.29976552079770435455e+00
  +2.36925078890863138881e+00
  +2.43817534025966642375e+00
  +2.50626163998127760024e+00
  +2.57323552855327353228e+00
  +2.63882732574939993242e+00
  +2.70277291654521567565e+00
  +2.76481481461664646559e+00
  +2.82470319914685852325e+00
  +2.88219692076657718616e+00
  +2.93706447257726521727e+00
  +2.98908492234719513903e+00
  +3.03804880212679639939e+00
  +3.08375895170111835597e+00
  +3.12603131248316001845e+00
  +3.16469566865136808786e+00
  +3.19959633254705044791e+00
  +3.23059277157189495000e+00
  +3.25756017406138598247e+00
  +3.28038995185556281342e+00
  +3.29899017754355483589e+00
  +3.31328595462129493754e+00
  +3.32321971907199298357e+00
  +3.32875147115505276574e+00
  +3.32985893647014208341e+00
  +3.32653765564791648046e+00
  +3.31880100230623042989e+00
  +3.30668012919956266771e+00
  +3.29022384277847201872e+00
  +3.26949840666416369217e+00
  +3.24458727482946374110e+00
  +3.21559075556055873335e+00
  +3.18262560755252543743e+00
  +3.14582456976499802437e+00
  +3.10533582693098919592e+00
  +3.06132241287103123994e+00
  +3.01396155401520182693e+00
  +2.96344395577639696526e+00
  +2.90997303464831658104e+00
  +2.85376409912019246562e+00
  +2.79504348270641322927e+00
  +2.73404763258196714659e+00
  +2.67102215749349403140e+00
  +2.60622083877961996379e+00
  +2.53990460848288535090e+00
  +2.47234049866804772577e+00
  +2.40380056617753146142e+00
  +2.33456079715365705241e+00
  +2.26489999573880051997e+00
  +2.19509866142834919600e+00
  +2.12543785959696851506e+00
  +2.05619808974623508036e+00
  +1.98765815603084172736e+00
  +1.92009404461140564813e+00
  +1.85377781235442751218e+00
  +1.78897649135424230415e+00
  +1.72595101368811243425e+00
  +1.66495516073410221303e+00
  +1.60623454128249787409e+00
  +1.55002560255557209068e+00
  +1.49655467811795661603e+00
  +1.44603707651138013723e+00
  +1.39867621428348321011e+00
  +1.35466279690170821048e+00
  +1.31417405085038740964e+00
  +1.27737301000309422250e+00
  +1.24440785914373974741e+00
  +1.21541133727978345469e+00
  +1.19050020315016591432e+00
  +1.16977476508012423473e+00
  +1.15331847707596635288e+00
  +1.14119760278612725202e+00
  +1.13346094868159452673e+00
  +1.13013966753005590249e+00
  +1.13124713295507572930e+00
  +1.13677888558540129971e+00
  +1.14671265101121910845e+00
  +1.16100842947506999181e+00
  +1.17960865693627048323e+00
  +1.20243843686032336748e+00
  +1.22940584179999978787e+00
  +1.26040228355378225444e+00
  +1.29530295041119880572e+00
  +1.33396730972446375674e+00
  +1.37623967378279843388e+00
  +1.42194982671088343551e+00
  +1.47091370986720604286e+00
  +1.52293416298246064855e+00
  +1.57780171805375690752e+00
  +1.63529544279790006733e+00
  +1.69518383026750329989e+00
  +1.75722573104775148245e+00
  +1.82117132428019701251e+00
  +1.88676312360362907761e+00
  +1.95373701396140564412e+00
  +2.02182331510040924627e+00
  +2.09074786747923058172e+00
  +2.16023313621300649956e+00
  +2.22999932860968019810e+00
</dep>
<dep _net1.Vt time>
  +5.00000000000000000000e+00
  +5.00000000000000000000e+00
  +5.00000000000000000000e+00
  +5.00000000000000000000e+00
  +5.00000000000000000000e+00
  +5.00000000000000000000e+00
  +5.00000000000000000000e+00
  +5.00000000000000000000e+00
  +5.00000000000000000000e+00
  +5.00000000000000000000e+00
  +5.00000000000000000000e+00
  +5.00000000000000000000e+00
  +5.00000000000000000000e+00
  +5.00000000000000000000e+00
  +5.00000000000000000000e+00
  +5.00000000000000000000e+00
  +5.00000000000000000000e+00
  +5.00000000000000000000e+00
  +5.00000000000000000000e+00
  +5.00000000000000000000e+00
  +5.00000000000000000000e+00
  +5.00000000000000000000e+00
  +5.00000000000000000000e+00
  +5.00000000000000000000e+00
  +5.00000000000000000000e+00
  +5.00000000000000000000e+00
  +5.00000000000000000000e+00
  +5.00000000000000000000e+00
  +5.00000000000000000000e+00
  +5.00000000000000000000e+00
  +5.00000000000000000000e+00
  +5.00000000000000000000e+00
  +5.00000000000000000000e+00
  +5.00000000000000000000e+00
  +5.00000000000000000000e+00
  +5.00000000000000000000e+00
  +5.00000000000000000000e+00
  +5.00000000000000000000e+00
  +5.00000000000000000000e+00
  +5.00000000000000000000e+00
  +5.00000000000000000000e+00
  +5.00000000000000000000e+00
  +5.00000000000000000000e+00
  +5.00000000000000000000e+00
  +5.00000000000000000000e+00
  +5.00000000000000000000e+00
  +5.00000000000000000000e+00
  +5.00000000000000000000e+00
  +5.00000000000000000000e+00
  +5.00000000000000000000e+00
  +5.00000000000000000000e+00
  +5.00000000000000000000e+00
  +5.00000000000000000000e+00
  +5.00000000000000000000e+00
  +5.00000000000000000000e+00
  +5.00000000000000000000e+00
  +5.00000000000000000000e+00
  +5.00000000000000000000e+00
  +5.00000000000000000000e+00
  +5.00000000000000000000e+00
  +5.00000000000000000000e+00
  +5.00000000000000000000e+00
  +5.00000000000000000000e+00
  +5.00000000000000000000e+00
  +5.00000000000000000000e+00
  +5.00000000000000000000e+00
  +5.00000000000000000000e+00
  +5.00000000000000000000e+00
  +5.00000000000000000000e+00
  +5.00000000000000000000e+00
  +5.00000000000000000000e+00
  +5.00000000000000000000e+00
  +5.00000000000000000000e+00
  +5.00000000000000000000e+00
  +5.00000000000000000000e+00
  +5.00000000000000000000e+00
  +5.00000000000000000000e+00
  +5.00000000000000000000e+00
  +5.00000000000000000000e+00
  +5.00000000000000000000e+00
  +5.00000000000000000000e+00
  +5.00000000000000000000e+00
  +5.00000000000000000000e+00
  +5.00000000000000000000e+00
  +5.00000000000000000000e+00
  +5.00000000000000000000e+00
  +5.00000000000000000000e+00
  +5.00000000000000000000e+00
  +5.00000000000000000000e+00
  +5.00000000000000000000e+00
  +5.00000000000000000000e+00
  +5.00000000000000000000e+00
  +5.00000000000000000000e+00
  +5.00000000000000000000e+00
  +5.00000000000000000000e+00
  +5.00000000000000000000e+00
  +5.00000000000000000000e+00
  +5.00000000000000000000e+00
  +5.00000000000000000000e+00
  +5.00000000000000000000e+00
</dep>
<dep Vin.Vt time>
  +2.22999999999999998224e+00
  +2.29976631162222089344e+00
  +2.36925169893112430586e+00
  +2.43817636879645105452e+00
  +2.50626278589918705109e+00
  +2.57323679026833573857e+00
  +2.63882870122636026267e+00
  +2.70277440329808893438e+00
  +2.76481640971051545463e+00
  +2.82470489920115719329e+00
  +2.88219872196010484799e+00
  +2.93706637065519338137e+00
  +2.98908691263032322283e+00
  +3.03805087952328678469e+00
  +3.08376111072093284093e+00
  +3.12603354725536952685e+00
  +3.16469797294446575364e+00
  +3.19959869979234046156e+00
  +3.23059519488997004544e+00
  +3.25756264629161762514e+00
  +3.28039246558848152091e+00
  +3.29899272515589592203e+00
  +3.31328852831342901553e+00
  +3.32322231090737929549e+00
  +3.32875407310130899674e+00
  +3.32986154044126259066e+00
  +3.32654025354713667184e+00
  +3.31880358606902614582e+00
  +3.30668269083625654403e+00
  +3.29022637441593612806e+00
  +3.26950090058613529465e+00
  +3.24458972351503938114e+00
  +3.21559315172046966680e+00
  +3.18262794416288219423e+00
  +3.14582684009824831151e+00
  +3.10533802458391505752e+00
  +3.06132453178968422236e+00
  +3.01396358851674905921e+00
  +2.96344590056792078769e+00
  +2.90997488484266586539e+00
  +2.85376585024904727561e+00
  +2.79504513073074711826e+00
  +2.73404917390015178569e+00
  +2.67102358894727487382e+00
  +2.60622215765823517231e+00
  +2.53990581252557268144e+00
  +2.47234158606519427437e+00
  +2.40380153557068432235e+00
  +2.33456164763460094491e+00
  +2.26490072684787424606e+00
  +2.19509927315212527432e+00
  +2.12543835236539857547e+00
  +2.05619846442931475394e+00
  +1.98765841393480524602e+00
  +1.92009418747442706099e+00
  +1.85377784234176434808e+00
  +1.78897641105272420248e+00
  +1.72595082609984817879e+00
  +1.66495486926925329030e+00
  +1.60623414975095180068e+00
