<Qucs Dataset 0.0.20>
<indep time 100>
  +0.00000000000000000000e+00
  +1.01010101010101018687e-02
  +2.02020202020202037374e-02
  +3.03030303030303038714e-02
  +4.04040404040404074748e-02
  +5.05050505050505110782e-02
  +6.06060606060606077428e-02
  +7.07070707070707182851e-02
  +8.08080808080808149496e-02
  +9.09090909090909116141e-02
  +1.01010101010101022156e-01
  +1.11111111111111118821e-01
  +1.21212121212121215486e-01
  +1.31313131313131326028e-01
  +1.41414141414141436570e-01
  +1.51515151515151519357e-01
  +1.61616161616161629899e-01
  +1.71717171717171740442e-01
  +1.81818181818181823228e-01
  +1.91919191919191933771e-01
  +2.02020202020202044313e-01
  +2.12121212121212127100e-01
  +2.22222222222222237642e-01
  +2.32323232323232348184e-01
  +2.42424242424242430971e-01
  +2.52525252525252541513e-01
  +2.62626262626262652056e-01
  +2.72727272727272762598e-01
  +2.82828282828282873140e-01
  +2.92929292929292928171e-01
  +3.03030303030303038714e-01
  +3.13131313131313149256e-01
  +3.23232323232323259798e-01
  +3.33333333333333370341e-01
  +3.43434343434343480883e-01
  +3.53535353535353591425e-01
  +3.63636363636363646457e-01
  +3.73737373737373756999e-01
  +3.83838383838383867541e-01
  +3.93939393939393978084e-01
  +4.04040404040404088626e-01
  +4.14141414141414199168e-01
  +4.24242424242424254199e-01
  +4.34343434343434364742e-01
  +4.44444444444444475284e-01
  +4.54545454545454585826e-01
  +4.64646464646464696369e-01
  +4.74747474747474806911e-01
  +4.84848484848484861942e-01
  +4.94949494949494972484e-01
  +5.05050505050505083027e-01
  +5.15151515151515249080e-01
  +5.25252525252525304111e-01
  +5.35353535353535359143e-01
  +5.45454545454545525196e-01
  +5.55555555555555580227e-01
  +5.65656565656565746281e-01
  +5.75757575757575801312e-01
  +5.85858585858585856343e-01
  +5.95959595959596022396e-01
  +6.06060606060606077428e-01
  +6.16161616161616243481e-01
  +6.26262626262626298512e-01
  +6.36363636363636464566e-01
  +6.46464646464646519597e-01
  +6.56565656565656574628e-01
  +6.66666666666666740682e-01
  +6.76767676767676795713e-01
  +6.86868686868686961766e-01
  +6.96969696969697016797e-01
  +7.07070707070707182851e-01
  +7.17171717171717237882e-01
  +7.27272727272727292913e-01
  +7.37373737373737458967e-01
  +7.47474747474747513998e-01
  +7.57575757575757680051e-01
  +7.67676767676767735082e-01
  +7.77777777777777790114e-01
  +7.87878787878787956167e-01
  +7.97979797979798011198e-01
  +8.08080808080808177252e-01
  +8.18181818181818232283e-01
  +8.28282828282828398336e-01
  +8.38383838383838453368e-01
  +8.48484848484848508399e-01
  +8.58585858585858674452e-01
  +8.68686868686868729483e-01
  +8.78787878787878895537e-01
  +8.88888888888888950568e-01
  +8.98989898989899116621e-01
  +9.09090909090909171653e-01
  +9.19191919191919226684e-01
  +9.29292929292929392737e-01
  +9.39393939393939447768e-01
  +9.49494949494949613822e-01
  +9.59595959595959668853e-01
  +9.69696969696969723884e-01
  +9.79797979797979889938e-01
  +9.89898989898989944969e-01
  +1.00000000000000000000e+00
</indep>
<dep V2.It time>
  -2.38793105853648656833e-04
  -2.31685266618393109457e-04
  -2.24606048152171131147e-04
  -2.17583955976646836218e-04
  -2.10647265585542847266e-04
  -2.03823908588966979175e-04
  -1.97141360242460497720e-04
  -1.90626528813655327739e-04
  -1.84305647232028068597e-04
  -1.78204167458044613215e-04
  -1.72346657997038345440e-04
  -1.66756704970500596076e-04
  -1.61456817143136447442e-04
  -1.56468335288108251722e-04
  -1.51811346255419966651e-04
  -1.47504602089454481435e-04
  -1.43565444521344170916e-04
  -1.40009735140208873769e-04
  -1.36851791524428690987e-04
  -1.34104329590116553694e-04
  -1.31778412388922528016e-04
  -1.29883405561328406450e-04
  -1.28426939624796379504e-04
  -1.27414879248609260332e-04
  -1.26851299639114121261e-04
  -1.26738470130446174901e-04
  -1.27076845046802228666e-04
  -1.27865061873053782390e-04
  -1.29099946741065675984e-04
  -1.30776527209630806254e-04
  -1.32888052286565924633e-04
  -1.35426019612353964322e-04
  -1.38380209695884855928e-04
  -1.41738727064449042143e-04
  -1.45488048162301661717e-04
  -1.49613075804938165051e-04
  -1.54097199969825595506e-04
  -1.58922364678818156623e-04
  -1.64069140702955936547e-04
  -1.69516803796898054245e-04
  -1.75243418147973931045e-04
  -1.81225924703838159671e-04
  -1.87440234023067805102e-04
  -1.93861323274824044055e-04
  -2.00463336996995638607e-04
  -2.07219691207103756366e-04
  -2.14103180446745456527e-04
  -2.21086087328541103757e-04
  -2.28140294144472309751e-04
  -2.35237396086198031001e-04
  -2.42348815621438936100e-04
  -2.49445917565875000151e-04
  -2.56500124387189676507e-04
  -2.63483031276966542505e-04
  -2.70366520527075726750e-04
  -2.77122874749989654523e-04
  -2.83724888487123022215e-04
  -2.90145977755780428049e-04
  -2.96360287093603517322e-04
  -3.02342793669477076512e-04
  -3.08069408041675217406e-04
  -3.13517071157528247859e-04
  -3.18663847204022493420e-04
  -3.23489011935460587382e-04
  -3.27973136122518380171e-04
  -3.32098163786684265515e-04
  -3.35847484905063596930e-04
  -3.39206002292801356464e-04
  -3.42160192393820591743e-04
  -3.44698159735104699402e-04
  -3.46809684825268005857e-04
  -3.48486265304555841403e-04
  -3.49721150180590614233e-04
  -3.50509367012018962281e-04
  -3.50847741930610749345e-04
  -3.50734912421196438209e-04
  -3.50171332807986497235e-04
  -3.49159272425184389558e-04
  -3.47702806479258076048e-04
  -3.45807799639661456962e-04
  -3.43481882424073075352e-04
  -3.40734420473232167519e-04
  -3.37576476839080829445e-04
  -3.34020767438052590837e-04
  -3.30081609848869672683e-04
  -3.25774865661008616174e-04
  -3.21117876605966521761e-04
  -3.16129394728492196884e-04
  -3.10829506878950638602e-04
  -3.05239553830854396400e-04
  -2.99382044349243083177e-04
  -2.93280564555922014687e-04
  -2.86959682956514517543e-04
  -2.80444851511748888696e-04
  -2.73762303151333611251e-04
  -2.66938946143100482716e-04
  -2.60002255742755919964e-04
  -2.52980163560537598191e-04
  -2.45900945090261760853e-04
  -2.38793105853648656833e-04
</dep>
<dep V3.It time>
  +0.00000000000000000000e+00
  +0.00000000000000000000e+00
  +0.00000000000000000000e+00
  +0.00000000000000000000e+00
  +0.00000000000000000000e+00
  +0.00000000000000000000e+00
  +0.00000000000000000000e+00
  +0.00000000000000000000e+00
  +0.00000000000000000000e+00
  +0.00000000000000000000e+00
  +0.00000000000000000000e+00
  +0.00000000000000000000e+00
  +0.00000000000000000000e+00
  +0.00000000000000000000e+00
  +0.00000000000000000000e+00
  +0.00000000000000000000e+00
  +0.00000000000000000000e+00
  +0.00000000000000000000e+00
  +0.00000000000000000000e+00
  +0.00000000000000000000e+00
  +0.00000000000000000000e+00
  +0.00000000000000000000e+00
  +0.00000000000000000000e+00
  +0.00000000000000000000e+00
  +0.00000000000000000000e+00
  +0.00000000000000000000e+00
  +0.00000000000000000000e+00
  +0.00000000000000000000e+00
  +0.00000000000000000000e+00
  +0.00000000000000000000e+00
  +0.00000000000000000000e+00
  +0.00000000000000000000e+00
  +0.00000000000000000000e+00
  +0.00000000000000000000e+00
  +0.00000000000000000000e+00
  +0.00000000000000000000e+00
  +0.00000000000000000000e+00
  +0.00000000000000000000e+00
  +0.00000000000000000000e+00
  +0.00000000000000000000e+00
  +0.00000000000000000000e+00
  +0.00000000000000000000e+00
  +0.00000000000000000000e+00
  +0.00000000000000000000e+00
  +0.00000000000000000000e+00
  +0.00000000000000000000e+00
  +0.00000000000000000000e+00
  +0.00000000000000000000e+00
  +0.00000000000000000000e+00
  +0.00000000000000000000e+00
  +0.00000000000000000000e+00
  +0.00000000000000000000e+00
  +0.00000000000000000000e+00
  +0.00000000000000000000e+00
  +0.00000000000000000000e+00
  +0.00000000000000000000e+00
  +0.00000000000000000000e+00
  +0.00000000000000000000e+00
  +0.00000000000000000000e+00
  +0.00000000000000000000e+00
  +0.00000000000000000000e+00
  +0.00000000000000000000e+00
  +0.00000000000000000000e+00
  +0.00000000000000000000e+00
  +0.00000000000000000000e+00
  +0.00000000000000000000e+00
  +0.00000000000000000000e+00
  +0.00000000000000000000e+00
  +0.00000000000000000000e+00
  +0.00000000000000000000e+00
  +0.00000000000000000000e+00
  +0.00000000000000000000e+00
  +0.00000000000000000000e+00
  +0.00000000000000000000e+00
  +0.00000000000000000000e+00
  +0.00000000000000000000e+00
  +0.00000000000000000000e+00
  +0.00000000000000000000e+00
  +0.00000000000000000000e+00
  +0.00000000000000000000e+00
  +0.00000000000000000000e+00
  +0.00000000000000000000e+00
  +0.00000000000000000000e+00
  +0.00000000000000000000e+00
  +0.00000000000000000000e+00
  +0.00000000000000000000e+00
  +0.00000000000000000000e+00
  +0.00000000000000000000e+00
  +0.00000000000000000000e+00
  +0.00000000000000000000e+00
  +0.00000000000000000000e+00
  +0.00000000000000000000e+00
  +0.00000000000000000000e+00
  +0.00000000000000000000e+00
  +0.00000000000000000000e+00
  +0.00000000000000000000e+00
  +0.00000000000000000000e+00
  +0.00000000000000000000e+00
  +0.00000000000000000000e+00
  +0.00000000000000000000e+00
</dep>
<dep V1.It time>
  +0.00000000000000000000e+00
  +0.00000000000000000000e+00
  +0.00000000000000000000e+00
  +0.00000000000000000000e+00
  +0.00000000000000000000e+00
  +0.00000000000000000000e+00
  +0.00000000000000000000e+00
  +0.00000000000000000000e+00
  +0.00000000000000000000e+00
  +0.00000000000000000000e+00
  +0.00000000000000000000e+00
  +0.00000000000000000000e+00
  +0.00000000000000000000e+00
  +0.00000000000000000000e+00
  +0.00000000000000000000e+00
  +0.00000000000000000000e+00
  +0.00000000000000000000e+00
  +0.00000000000000000000e+00
  +0.00000000000000000000e+00
  +0.00000000000000000000e+00
  +0.00000000000000000000e+00
  +0.00000000000000000000e+00
  +0.00000000000000000000e+00
  +0.00000000000000000000e+00
  +0.00000000000000000000e+00
  +0.00000000000000000000e+00
  +0.00000000000000000000e+00
  +0.00000000000000000000e+00
  +0.00000000000000000000e+00
  +0.00000000000000000000e+00
  +0.00000000000000000000e+00
  +0.00000000000000000000e+00
  +0.00000000000000000000e+00
  +0.00000000000000000000e+00
  +0.00000000000000000000e+00
  +0.00000000000000000000e+00
  +0.00000000000000000000e+00
  +0.00000000000000000000e+00
  +0.00000000000000000000e+00
  +0.00000000000000000000e+00
  +0.00000000000000000000e+00
  +0.00000000000000000000e+00
  +0.00000000000000000000e+00
  +0.00000000000000000000e+00
  +0.00000000000000000000e+00
  +0.00000000000000000000e+00
  +0.00000000000000000000e+00
  +0.00000000000000000000e+00
  +0.00000000000000000000e+00
  +0.00000000000000000000e+00
  +0.00000000000000000000e+00
  +0.00000000000000000000e+00
  +0.00000000000000000000e+00
  +0.00000000000000000000e+00
  +0.00000000000000000000e+00
  +0.00000000000000000000e+00
  +0.00000000000000000000e+00
  +0.00000000000000000000e+00
  +0.00000000000000000000e+00
  +0.00000000000000000000e+00
  +0.00000000000000000000e+00
  +0.00000000000000000000e+00
  +0.00000000000000000000e+00
  +0.00000000000000000000e+00
  +0.00000000000000000000e+00
  +0.00000000000000000000e+00
  +0.00000000000000000000e+00
  +0.00000000000000000000e+00
  +0.00000000000000000000e+00
  +0.00000000000000000000e+00
  +0.00000000000000000000e+00
  +0.00000000000000000000e+00
  +0.00000000000000000000e+00
  +0.00000000000000000000e+00
  +0.00000000000000000000e+00
  +0.00000000000000000000e+00
  +0.00000000000000000000e+00
  +0.00000000000000000000e+00
  +0.00000000000000000000e+00
  +0.00000000000000000000e+00
  +0.00000000000000000000e+00
  +0.00000000000000000000e+00
  +0.00000000000000000000e+00
  +0.00000000000000000000e+00
  +0.00000000000000000000e+00
  +0.00000000000000000000e+00
  +0.00000000000000000000e+00
  +0.00000000000000000000e+00
  +0.00000000000000000000e+00
  +0.00000000000000000000e+00
  +0.00000000000000000000e+00
  +0.00000000000000000000e+00
  +0.00000000000000000000e+00
  +0.00000000000000000000e+00
  +0.00000000000000000000e+00
  +0.00000000000000000000e+00
  +0.00000000000000000000e+00
  +0.00000000000000000000e+00
  +0.00000000000000000000e+00
  +0.00000000000000000000e+00
</dep>
<dep _net0.Vt time>
  +2.22999997209767553130e+00
  +2.31245090722664015104e+00
  +2.39456984143481488303e+00
  +2.47602611067089695140e+00
  +2.55649171920770301725e+00
  +2.63564266036798322546e+00
  +2.71316022118745836522e+00
  +2.78873226576159849444e+00
  +2.86205449210847451269e+00
  +2.93283165748668261941e+00
  +3.00077876723435510442e+00
  +3.06562222234219294847e+00
  +3.12710092113961746207e+00
  +3.18496731065794458360e+00
  +3.23898838343712869303e+00
  +3.28894661576232794076e+00
  +3.33464084355240775182e+00
  +3.37588707237357699142e+00
  +3.41251921831662752282e+00
  +3.44438977675464830241e+00
  +3.47137041628849907227e+00
  +3.49335249548859039237e+00
  +3.51024750035236232648e+00
  +3.52198740071613292102e+00
  +3.52852492418627639026e+00
  +3.52983374648682435293e+00
  +3.52590859745709428452e+00
  +3.51676528227257634285e+00
  +3.50244061780363846736e+00
  +3.48299228436828300914e+00
  +3.45849859347583565850e+00
  +3.42905817249669420121e+00
  +3.39478956752773575190e+00
  +3.35583076605239138956e+00
  +3.31233864131730104674e+00
  +3.26448832066271732444e+00
  +3.21247248035002330724e+00
  +3.15650056972570958180e+00
  +3.09679796784571115253e+00
  +3.03360507595598249964e+00
  +2.96717634948350283963e+00
  +2.89777927343547725414e+00
  +2.82569328533241348467e+00
  +2.75120865001204117917e+00
  +2.67462529083485067716e+00
  +2.59625158199759642486e+00
  +2.51640310681775281054e+00
  +2.43540138698892327795e+00
  +2.35357258792412116222e+00
  +2.27124620540010280223e+00
  +2.18875373879130830090e+00
  +2.10642735623584975713e+00
  +2.02459855710859937261e+00
  +1.94359683718718811996e+00
  +1.86374836188592185593e+00
  +1.78537465290011976293e+00
  +1.70879129354937342455e+00
  +1.63430665803294727922e+00
  +1.56222066971419937254e+00
  +1.49282359343406634267e+00
  +1.42639486671656734451e+00
  +1.36320197457267222596e+00
  +1.30349937243333946491e+00
  +1.24752746154865756800e+00
  +1.19551162097878704849e+00
  +1.14766130007446265360e+00
  +1.10416917510126211255e+00
  +1.06521037340350432920e+00
  +1.03094176823168104384e+00
  +1.00150134707278559709e+00
  +9.77007656026891213585e-01
  +9.57559322467152140845e-01
  +9.43234657905148488055e-01
  +9.34091342660579915247e-01
  +9.30166193604915148008e-01
  +9.31475015914121406979e-01
  +9.38012539427356517585e-01
  +9.49752439867861064648e-01
  +9.66647444840606162586e-01
  +9.88629524179927110517e-01
  +1.01561016388075242567e+00
  +1.04748072251050672321e+00
  +1.08411286866666234374e+00
  +1.12535909771859010675e+00
  +1.17105332575311193999e+00
  +1.22101155833230046177e+00
  +1.27503263137078803879e+00
  +1.33289902114949065925e+00
  +1.39437772020417249941e+00
  +1.45922117556208896794e+00
  +1.52716828554878070179e+00
  +1.59794545115130448565e+00
  +1.67126767770443196426e+00
  +1.74683972246371310710e+00
  +1.82435728344453007566e+00
  +1.90350822474003433804e+00
  +1.98397383338403132669e+00
  +2.06543010269776372567e+00
  +2.14754903695296395227e+00
  +2.22999997209767553130e+00
</dep>
<dep _net1.Vt time>
  +5.00000000000000000000e+00
  +5.00000000000000000000e+00
  +5.00000000000000000000e+00
  +5.00000000000000000000e+00
  +5.00000000000000000000e+00
  +5.00000000000000000000e+00
  +5.00000000000000000000e+00
  +5.00000000000000000000e+00
  +5.00000000000000000000e+00
  +5.00000000000000000000e+00
  +5.00000000000000000000e+00
  +5.00000000000000000000e+00
  +5.00000000000000000000e+00
  +5.00000000000000000000e+00
  +5.00000000000000000000e+00
  +5.00000000000000000000e+00
  +5.00000000000000000000e+00
  +5.00000000000000000000e+00
  +5.00000000000000000000e+00
  +5.00000000000000000000e+00
  +5.00000000000000000000e+00
  +5.00000000000000000000e+00
  +5.00000000000000000000e+00
  +5.00000000000000000000e+00
  +5.00000000000000000000e+00
  +5.00000000000000000000e+00
  +5.00000000000000000000e+00
  +5.00000000000000000000e+00
  +5.00000000000000000000e+00
  +5.00000000000000000000e+00
  +5.00000000000000000000e+00
  +5.00000000000000000000e+00
  +5.00000000000000000000e+00
  +5.00000000000000000000e+00
  +5.00000000000000000000e+00
  +5.00000000000000000000e+00
  +5.00000000000000000000e+00
  +5.00000000000000000000e+00
  +5.00000000000000000000e+00
  +5.00000000000000000000e+00
  +5.00000000000000000000e+00
  +5.00000000000000000000e+00
  +5.00000000000000000000e+00
  +5.00000000000000000000e+00
  +5.00000000000000000000e+00
  +5.00000000000000000000e+00
  +5.00000000000000000000e+00
  +5.00000000000000000000e+00
  +5.00000000000000000000e+00
  +5.00000000000000000000e+00
  +5.00000000000000000000e+00
  +5.00000000000000000000e+00
  +5.00000000000000000000e+00
  +5.00000000000000000000e+00
  +5.00000000000000000000e+00
  +5.00000000000000000000e+00
  +5.00000000000000000000e+00
  +5.00000000000000000000e+00
  +5.00000000000000000000e+00
  +5.00000000000000000000e+00
  +5.00000000000000000000e+00
  +5.00000000000000000000e+00
  +5.00000000000000000000e+00
  +5.00000000000000000000e+00
  +5.00000000000000000000e+00
  +5.00000000000000000000e+00
  +5.00000000000000000000e+00
  +5.00000000000000000000e+00
  +5.00000000000000000000e+00
  +5.00000000000000000000e+00
  +5.00000000000000000000e+00
  +5.00000000000000000000e+00
  +5.00000000000000000000e+00
  +5.00000000000000000000e+00
  +5.00000000000000000000e+00
  +5.00000000000000000000e+00
  +5.00000000000000000000e+00
  +5.00000000000000000000e+00
  +5.00000000000000000000e+00
  +5.00000000000000000000e+00
  +5.00000000000000000000e+00
  +5.00000000000000000000e+00
  +5.00000000000000000000e+00
  +5.00000000000000000000e+00
  +5.00000000000000000000e+00
  +5.00000000000000000000e+00
  +5.00000000000000000000e+00
  +5.00000000000000000000e+00
  +5.00000000000000000000e+00
  +5.00000000000000000000e+00
  +5.00000000000000000000e+00
  +5.00000000000000000000e+00
  +5.00000000000000000000e+00
  +5.00000000000000000000e+00
  +5.00000000000000000000e+00
  +5.00000000000000000000e+00
  +5.00000000000000000000e+00
  +5.00000000000000000000e+00
  +5.00000000000000000000e+00
  +5.00000000000000000000e+00
</dep>
<dep Uout.Vt time>
  +2.79022445693293263957e-02
  +1.88302483311596269289e-01
  +3.48056846699338784390e-01
  +5.06522060127004181140e-01
  +6.63060039952917179562e-01
  +8.17040462842313353065e-01
  +9.67843303861808834654e-01
  +1.11486133310517931960e+00
  +1.25750256079723410352e+00
  +1.39519262103012753329e+00
  +1.52737708453350151672e+00
  +1.65352369116570407925e+00
  +1.77312449313655573491e+00
  +1.88569790033169226717e+00
  +1.99079061950269053938e+00
  +2.08797947951464468730e+00
  +2.17687313530166726139e+00
  +2.25711364366928712855e+00
  +2.32837790459872717719e+00
  +2.39037896224970491943e+00
  +2.44286716042331697452e+00
  +2.48563114783268979124e+00
  +2.51849872913376326977e+00
  +2.54133755828971885649e+00
  +2.55405567147732615041e+00
  +2.55660185738959899737e+00
  +2.54896586344383102585e+00
  +2.53117843706475387222e+00
  +2.50331120187661948506e+00
  +2.46547636930266644839e+00
  +2.41782628673316413170e+00
  +2.36055282408121325233e+00
  +2.29388660119619913758e+00
  +2.21809605924560138135e+00
  +2.13348637980406063974e+00
  +2.04039825600189672627e+00
  +1.93920652068093701814e+00
  +1.83031863708133801794e+00
  +1.71417305813662856906e+00
  +1.59123746098333462839e+00
  +1.46200686379405642157e+00
  +1.32700163251671909848e+00
  +1.18676538554610377929e+00
  +1.04186280476480508383e+00
  +8.92877361767799193615e-01
  +7.40408968426359059833e-01
  +5.85071561251778504698e-01
  +4.27490629285923517955e-01
  +2.68300695473075556663e-01
  +1.08142761654798746918e-01
  -5.23382725238050738881e-02
  -2.12496206403245402328e-01
  -3.71686140337580628312e-01
  -5.29267072483544431805e-01
  -6.84604479894340922641e-01
  -8.37072873524766336573e-01
  -9.86058316859407923971e-01
  -1.13096089802211041686e+00
  -1.27119714541231854099e+00
  -1.40620237714119777905e+00
