<Qucs Dataset 0.0.20>
<indep time 100>
  +0.00000000000000000000e+00
  +1.01010101010101018687e-02
  +2.02020202020202037374e-02
  +3.03030303030303038714e-02
  +4.04040404040404074748e-02
  +5.05050505050505110782e-02
  +6.06060606060606077428e-02
  +7.07070707070707182851e-02
  +8.08080808080808149496e-02
  +9.09090909090909116141e-02
  +1.01010101010101022156e-01
  +1.11111111111111118821e-01
  +1.21212121212121215486e-01
  +1.31313131313131326028e-01
  +1.41414141414141436570e-01
  +1.51515151515151519357e-01
  +1.61616161616161629899e-01
  +1.71717171717171740442e-01
  +1.81818181818181823228e-01
  +1.91919191919191933771e-01
  +2.02020202020202044313e-01
  +2.12121212121212127100e-01
  +2.22222222222222237642e-01
  +2.32323232323232348184e-01
  +2.42424242424242430971e-01
  +2.52525252525252541513e-01
  +2.62626262626262652056e-01
  +2.72727272727272762598e-01
  +2.82828282828282873140e-01
  +2.92929292929292928171e-01
  +3.03030303030303038714e-01
  +3.13131313131313149256e-01
  +3.23232323232323259798e-01
  +3.33333333333333370341e-01
  +3.43434343434343480883e-01
  +3.53535353535353591425e-01
  +3.63636363636363646457e-01
  +3.73737373737373756999e-01
  +3.83838383838383867541e-01
  +3.93939393939393978084e-01
  +4.04040404040404088626e-01
  +4.14141414141414199168e-01
  +4.24242424242424254199e-01
  +4.34343434343434364742e-01
  +4.44444444444444475284e-01
  +4.54545454545454585826e-01
  +4.64646464646464696369e-01
  +4.74747474747474806911e-01
  +4.84848484848484861942e-01
  +4.94949494949494972484e-01
  +5.05050505050505083027e-01
  +5.15151515151515249080e-01
  +5.25252525252525304111e-01
  +5.35353535353535359143e-01
  +5.45454545454545525196e-01
  +5.55555555555555580227e-01
  +5.65656565656565746281e-01
  +5.75757575757575801312e-01
  +5.85858585858585856343e-01
  +5.95959595959596022396e-01
  +6.06060606060606077428e-01
  +6.16161616161616243481e-01
  +6.26262626262626298512e-01
  +6.36363636363636464566e-01
  +6.46464646464646519597e-01
  +6.56565656565656574628e-01
  +6.66666666666666740682e-01
  +6.76767676767676795713e-01
  +6.86868686868686961766e-01
  +6.96969696969697016797e-01
  +7.07070707070707182851e-01
  +7.17171717171717237882e-01
  +7.27272727272727292913e-01
  +7.37373737373737458967e-01
  +7.47474747474747513998e-01
  +7.57575757575757680051e-01
  +7.67676767676767735082e-01
  +7.77777777777777790114e-01
  +7.87878787878787956167e-01
  +7.97979797979798011198e-01
  +8.08080808080808177252e-01
  +8.18181818181818232283e-01
  +8.28282828282828398336e-01
  +8.38383838383838453368e-01
  +8.48484848484848508399e-01
  +8.58585858585858674452e-01
  +8.68686868686868729483e-01
  +8.78787878787878895537e-01
  +8.88888888888888950568e-01
  +8.98989898989899116621e-01
  +9.09090909090909171653e-01
  +9.19191919191919226684e-01
  +9.29292929292929392737e-01
  +9.39393939393939447768e-01
  +9.49494949494949613822e-01
  +9.59595959595959668853e-01
  +9.69696969696969723884e-01
  +9.79797979797979889938e-01
  +9.89898989898989944969e-01
  +1.00000000000000000000e+00
</indep>
<dep V1.It time>
  -2.02003878474466696830e-04
  -2.02003878474466696830e-04
  -2.02003878474466696830e-04
  -2.02003878474466696830e-04
  -2.02003878474466696830e-04
  -2.02003878474466696830e-04
  -2.02003878474466696830e-04
  -2.02003878474466696830e-04
  -2.02003878474466696830e-04
  -2.02003878474466696830e-04
  -2.02003878474466696830e-04
  -2.02003878474466696830e-04
  -2.02003878474466696830e-04
  -2.02003878474466696830e-04
  -2.02003878474466696830e-04
  -2.02003878474466696830e-04
  -2.02003878474466696830e-04
  -2.02003878474466696830e-04
  -2.02003878474466696830e-04
  -2.02003878474466696830e-04
  -2.02003878474466696830e-04
  -2.02003878474466696830e-04
  -2.02003878474466696830e-04
  -2.02003878474466696830e-04
  -2.02003878474466696830e-04
  -2.02003878474466696830e-04
  -2.02003878474466696830e-04
  -2.02003878474466696830e-04
  -2.02003878474466696830e-04
  -2.02003878474466696830e-04
  -2.02003878474466696830e-04
  -2.02003878474466696830e-04
  -2.02003878474466696830e-04
  -2.02003878474466696830e-04
  -2.02003878474466696830e-04
  -2.02003878474466696830e-04
  -2.02003878474466696830e-04
  -2.02003878474466696830e-04
  -2.02003878474466696830e-04
  -2.02003878474466696830e-04
  -2.02003878474466696830e-04
  -2.02003878474466696830e-04
  -2.02003878474466696830e-04
  -2.02003878474466696830e-04
  -2.02003878474466696830e-04
  -2.02003878474466696830e-04
  -2.02003878474466696830e-04
  -2.02003878474466696830e-04
  -2.02003878474466696830e-04
  -2.02003878474466696830e-04
  -2.02003878474466696830e-04
  -2.02003878474466696830e-04
  -2.02003878474466696830e-04
  -2.02003878474466696830e-04
  -2.02003878474466696830e-04
  -2.02003878474466696830e-04
  -2.02003878474466696830e-04
  -2.02003878474466696830e-04
  -2.02003878474466696830e-04
  -2.02003878474466696830e-04
  -2.02003878474466696830e-04
  -2.02003878474466696830e-04
  -2.02003878474466696830e-04
  -2.02003878474466696830e-04
  -2.02003878474466696830e-04
  -2.02003878474466696830e-04
  -2.02003878474466696830e-04
  -2.02003878474466696830e-04
  -2.02003878474466696830e-04
  -2.02003878474466696830e-04
  -2.02003878474466696830e-04
  -2.02003878474466696830e-04
  -2.02003878474466696830e-04
  -2.02003878474466696830e-04
  -2.02003878474466696830e-04
  -2.02003878474466696830e-04
  -2.02003878474466696830e-04
  -2.02003878474466696830e-04
  -2.02003878474466696830e-04
  -2.02003878474466696830e-04
  -2.02003878474466696830e-04
  -2.02003878474466696830e-04
  -2.02003878474466696830e-04
  -2.02003878474466696830e-04
  -2.02003878474466696830e-04
  -2.02003878474466696830e-04
  -2.02003878474466696830e-04
  -2.02003878474466696830e-04
  -2.02003878474466696830e-04
  -2.02003878474466696830e-04
  -2.02003878474466696830e-04
  -2.02003878474466696830e-04
  -2.02003878474466696830e-04
  -2.02003878474466696830e-04
  -2.02003878474466696830e-04
  -2.02003878474466696830e-04
  -2.02003878474466696830e-04
  -2.02003878474466696830e-04
  -2.02003878474466696830e-04
  -2.02003878474466696830e-04
</dep>
<dep V2.It time>
  -5.44547856779179113851e-05
  -5.45175208917750460380e-05
  -5.45799912538172220244e-05
  -5.46419413840278263284e-05
  -5.47031164144394163595e-05
  -5.47632620895343105727e-05
  -5.48221241213737130182e-05
  -5.48794459956751523588e-05
  -5.49349632439151587537e-05
  -5.49883886080035876043e-05
  -5.50393694794997292985e-05
  -5.50873373279031283700e-05
  -5.51307143191771820145e-05
  -5.51544163530375171345e-05
  +1.40819534419035427564e-05
  +1.40267065180787325884e-05
  +1.39939047616882174252e-05
  +1.39644806625349379714e-05
  +1.39385510587609201538e-05
  +1.39260232221907059857e-05
  +1.39054872782587955748e-05
  +1.38887554877518797081e-05
  +1.38758955047133501759e-05
  +1.38669593138882746297e-05
  +1.38619830320134244939e-05
  +1.38609867691178931248e-05
  +1.38639745510898103331e-05
  +1.38709343041496999116e-05
  +1.38818379013853042403e-05
  +1.38966412709311086526e-05
  +1.39152845648705600357e-05
  +1.39376923872689371942e-05
  +1.39637740789763480087e-05
  +1.39934240557799786930e-05
  +1.40265221949789804790e-05
  +1.40629342631026603427e-05
  +1.41025123737430375936e-05
  +1.41450954579467984285e-05
  +1.41905097178207650899e-05
  +1.42385690115203779327e-05
  +1.42890750720807251095e-05
  +1.43418173636066653698e-05
  +1.43965721461393469927e-05
  +1.44530997201889124804e-05
  +1.45111370657385711780e-05
  +1.45703770306039939730e-05
  +1.46303987520616032847e-05
  +1.46903449815103011311e-05
  +1.47457012752210889217e-05
  -5.44861704216330431511e-05
  -5.44233985830876003387e-05
  -5.43607448002052760783e-05
  -5.42984631755230422179e-05
  -5.42368058947153685451e-05
  -5.41760223256803306879e-05
  -5.41163580929967646255e-05
  -5.40580541440415212467e-05
  -5.40013458182925405737e-05
  -5.39464619285319121889e-05
  -5.38936238608635296427e-05
  -5.38430446993488562302e-05
  -5.37949283802366395868e-05
  -5.37494688802216125101e-05
  -5.37068494427155387894e-05
  -5.36672418457613802784e-05
  -5.36308057149078101777e-05
  -5.35976878840885122279e-05
  -5.35680218072757518416e-05
  -5.35419270234348439186e-05
  -5.35195086770454998837e-05
  -5.35008570962027668605e-05
  -5.34860474300708800544e-05
  -5.34751393471888294279e-05
  -5.34681767958848815081e-05
  -5.34651878277936191963e-05
  -5.34661844851945424612e-05
  -5.34711627526505799135e-05
  -5.34801025731323435158e-05
  -5.34929679285736994765e-05
  -5.35097069845158306023e-05
  -5.35302522982515020106e-05
  -5.35545210896030358244e-05
  -5.35824155732172666133e-05
  -5.36138233509914335223e-05
  -5.36486178629987185001e-05
  -5.36866588950171610278e-05
  -5.37277931405282394711e-05
  -5.37718548147766723516e-05
  -5.38186663182602977040e-05
  -5.38680389467304909096e-05
  -5.39197736445357327789e-05
  -5.39736617978280389107e-05
  -5.40294860638442647760e-05
  -5.40870212320570999814e-05
  -5.41460351125161182956e-05
  -5.42062894460209731412e-05
  -5.42675408298273070917e-05
  -5.43295416511686748290e-05
  -5.43920410186501772365e-05
  -5.44547856779179113851e-05
</dep>
<dep V3.It time>
  -5.44547856779179113851e-05
  -5.45175208917750460380e-05
  -5.45799912538172220244e-05
  -5.46419413840278263284e-05
  -5.47031164144394163595e-05
  -5.47632620895343105727e-05
  -5.48221241213737130182e-05
  -5.48794459956751523588e-05
  -5.49349632439151587537e-05
  -5.49883886080035876043e-05
  -5.50393694794997292985e-05
  -5.50873373279031283700e-05
  -5.51307143191771820145e-05
  -5.51544163530375171345e-05
  +1.40819534419035427564e-05
  +1.40267065180787325884e-05
  +1.39939047616882174252e-05
  +1.39644806625349379714e-05
  +1.39385510587609201538e-05
  +1.39260232221907059857e-05
  +1.39054872782587955748e-05
  +1.38887554877518797081e-05
  +1.38758955047133501759e-05
  +1.38669593138882746297e-05
  +1.38619830320134244939e-05
  +1.38609867691178931248e-05
  +1.38639745510898103331e-05
  +1.38709343041496999116e-05
  +1.38818379013853042403e-05
  +1.38966412709311086526e-05
  +1.39152845648705600357e-05
  +1.39376923872689371942e-05
  +1.39637740789763480087e-05
  +1.39934240557799786930e-05
  +1.40265221949789804790e-05
  +1.40629342631026603427e-05
  +1.41025123737430375936e-05
  +1.41450954579467984285e-05
  +1.41905097178207650899e-05
  +1.42385690115203779327e-05
  +1.42890750720807251095e-05
  +1.43418173636066653698e-05
  +1.43965721461393469927e-05
  +1.44530997201889124804e-05
  +1.45111370657385711780e-05
  +1.45703770306039939730e-05
  +1.46303987520616032847e-05
  +1.46903449815103011311e-05
  +1.47457012752210889217e-05
  -5.44861704216330431511e-05
  -5.44233985830876003387e-05
  -5.43607448002052760783e-05
  -5.42984631755230422179e-05
  -5.42368058947153685451e-05
  -5.41760223256803306879e-05
  -5.41163580929967646255e-05
  -5.40580541440415212467e-05
  -5.40013458182925405737e-05
  -5.39464619285319121889e-05
  -5.38936238608635296427e-05
  -5.38430446993488562302e-05
  -5.37949283802366395868e-05
  -5.37494688802216125101e-05
  -5.37068494427155387894e-05
  -5.36672418457613802784e-05
  -5.36308057149078101777e-05
  -5.35976878840885122279e-05
  -5.35680218072757518416e-05
  -5.35419270234348439186e-05
  -5.35195086770454998837e-05
  -5.35008570962027668605e-05
  -5.34860474300708800544e-05
  -5.34751393471888294279e-05
  -5.34681767958848815081e-05
  -5.34651878277936191963e-05
  -5.34661844851945424612e-05
  -5.34711627526505799135e-05
  -5.34801025731323435158e-05
  -5.34929679285736994765e-05
  -5.35097069845158306023e-05
  -5.35302522982515020106e-05
  -5.35545210896030358244e-05
  -5.35824155732172666133e-05
  -5.36138233509914335223e-05
  -5.36486178629987185001e-05
  -5.36866588950171610278e-05
  -5.37277931405282394711e-05
  -5.37718548147766723516e-05
  -5.38186663182602977040e-05
  -5.38680389467304909096e-05
  -5.39197736445357327789e-05
  -5.39736617978280389107e-05
  -5.40294860638442647760e-05
  -5.40870212320570999814e-05
  -5.41460351125161182956e-05
  -5.42062894460209731412e-05
  -5.42675408298273070917e-05
  -5.43295416511686748290e-05
  -5.43920410186501772365e-05
  -5.44547856779179113851e-05
</dep>
<dep _net0.Vt time>
  +1.94554521432208216147e+00
  +1.95182487107388147329e+00
  +1.95807925410355787577e+00
  +1.96428318305201288219e+00
  +1.97041168230366858793e+00
  +1.97644008248031433084e+00
  +1.98234412144465887984e+00
  +1.98810004521324179549e+00
  +1.99368471036613148506e+00
  +1.99907569313755573148e+00
  +2.00425142342596451783e+00
  +2.00919142364075087315e+00
  +2.01387718682903393841e+00
  +2.01830475451271551535e+00
  +2.09173540934195001384e+00
  +2.09726505999511170231e+00
  +2.10054785701700197365e+00
  +2.10349244278931690744e+00
  +2.10608719709193170644e+00
  +2.10734080924870159635e+00
  +2.10939571142266579784e+00
  +2.11106991232010576809e+00
  +2.11235667080593447764e+00
  +2.11325080576001367305e+00
  +2.11374871695031441021e+00
  +2.11384839953650516264e+00
  +2.11354945214628386907e+00
  +2.11285307849224324173e+00
  +2.11176208252286334854e+00
  +2.11028085712692492493e+00
  +2.10841536643633764569e+00
  +2.10617312179772708802e+00
  +2.10356315150810990744e+00
  +2.10059596443422380574e+00
  +2.09728350765845616976e+00
  +2.09363911831618576542e+00
  +2.08967746980916890820e+00
  +2.08541451259583299205e+00
  +2.08086740976944994941e+00
  +2.07605446763358125750e+00
  +2.07099506145835787763e+00
  +2.06570955652094712107e+00
  +2.06021922431887993810e+00
  +2.05454615326084999438e+00
  +2.04871315139830567631e+00
  +2.04274363271474701520e+00
  +2.03666145203071558001e+00
  +2.03049048457884540042e+00
  +2.02425130560563948379e+00
  +1.94868662292817385051e+00
  +1.94240380806710599693e+00
  +1.93613365086937672110e+00
  +1.92990139722714171278e+00
  +1.92373214082663057667e+00
  +1.91765072199017660992e+00
  +1.91168162757443638178e+00
  +1.90584889231529719389e+00
  +1.90017600200896619178e+00
  +1.89468579891412747251e+00
  +1.88940038975285928835e+00
  +1.88434105667859075339e+00
  +1.87952817156813400956e+00
  +1.87498111398189215571e+00
  +1.87071819312185860795e+00
  +1.86675657410115536372e+00
  +1.86311220882161521217e+00
  +1.85979977173746768848e+00
  +1.85683260076359091251e+00
  +1.85422264356610710934e+00
  +1.85198040945148778569e+00
  +1.85011492704780300400e+00
  +1.84863370794845116585e+00
  +1.84754271646471779356e+00
  +1.84684634560892080302e+00
  +1.84654739940481893434e+00
  +1.84664708159650481356e+00
  +1.84714499080122407371e+00
  +1.84803912212564669382e+00
  +1.84932587523907221438e+00
  +1.85100006887107682019e+00
  +1.85305496167523786610e+00
  +1.85548227937494503159e+00
  +1.85827224808202440265e+00
  +1.86141363365405698715e+00
  +1.86489378693196772296e+00
  +1.86869869467580729250e+00
  +1.87281303599371851121e+00
  +1.87722024403701204243e+00
  +1.88190257271308580833e+00
  +1.88684116814780544757e+00
  +1.89201614460990463762e+00
  +1.89740666459212503625e+00
  +1.90299102272723863472e+00
  +1.90874673320191012849e+00
  +1.91465062031763544326e+00
  +1.92067891183587113879e+00
  +1.92680733473413146051e+00
  +1.93301121299145628463e+00
  +1.93926556701569330343e+00
  +1.94554521432208216147e+00
</dep>
<dep Uout.Vt time>
  -3.49993335346971878863e+00
  -3.49992721810361695489e+00
  -3.49991987127815695757e+00
  -3.49991095535076146561e+00
  -3.49989995914024953905e+00
  -3.49988612647312224979e+00
  -3.49986829069268612358e+00
  -3.49984455435426600189e+00
  -3.49981161402539386884e+00
  -3.49976316766282291582e+00
  -3.49968552452399883634e+00
  -3.49954230914956365694e+00
  -3.49919424508868726065e+00
  -3.49713688079105544659e+00
  +3.49993075353233562552e+00
  +3.49993571180299767320e+00
  +3.49993833318585068071e+00
  +3.49994050904281994718e+00
  +3.49994230296803987557e+00
  +3.49994313146773405876e+00
  +3.49994443924850662242e+00
  +3.49994546109523563260e+00
  +3.49994622127727028627e+00
  +3.49994673714888504534e+00
  +3.49994702015164671494e+00
  +3.49994707644830915783e+00
  +3.49994690725523138752e+00
  +3.49994650890722747150e+00
  +3.49994587266138790227e+00
  +3.49994498422003852411e+00
  +3.49994382292342187668e+00
  +3.49994236052465002018e+00
  +3.49994055940572001973e+00
  +3.49993837001225349681e+00
  +3.49993572715637002446e+00
  +3.49993254462641667502e+00
  +3.49992870718348347836e+00
  +3.49992405839048048577e+00
  +3.49991838155154422196e+00
  +3.49991136878567221657e+00
  +3.49990256866640425670e+00
  +3.49989129288160816245e+00
  +3.49987643893282429630e+00
  +3.49985612527975797903e+00
  +3.49982685797219383872e+00
  +3.49978133577511441032e+00
  +3.49970132723688109877e+00
  +3.49952498272988865580e+00
  +3.49882143312773541410e+00
  -3.49993041923509506930e+00
  -3.49993605024166232198e+00
  -3.49994082915111404120e+00
  -3.49994492032513759838e+00
  -3.49994844864491616576e+00
  -3.49995151057785358617e+00
  -3.49995418172525596390e+00
  -3.49995652208884555634e+00
  -3.49995857982031965960e+00
  -3.49996039393904379011e+00
  -3.49996199633348048508e+00
  -3.49996341325629600760e+00
  -3.49996466645553860886e+00
  -3.49996577404027009450e+00
  -3.49996675114969679754e+00
  -3.49996761047497173536e+00
  -3.49996836266917288327e+00
  -3.49996901667137771952e+00
  -3.49996957996396407253e+00
  -3.49997005877737343837e+00
  -3.49997045825303620958e+00
  -3.49997078257246840849e+00
  -3.49997103505864037842e+00
  -3.49997121825414536644e+00
  -3.49997133397957327361e+00
  -3.49997138337452096124e+00
  -3.49997136692293819848e+00
  -3.49997128446380356692e+00
  -3.49997113518757796413e+00
  -3.49997091761828427181e+00
  -3.49997062958049376391e+00
  -3.49997026814989142807e+00
  -3.49996982958536406727e+00
  -3.49996930923971927285e+00
  -3.49996870144511174061e+00
  -3.49996799936789448893e+00
  -3.49996719482593343642e+00
  -3.49996627805910209830e+00
  -3.49996523744064758077e+00
  -3.49996405911292240987e+00
  -3.49996272652525775015e+00
  -3.49996121984367292157e+00
  -3.49995951519070436220e+00
  -3.49995758365719922267e+00
  -3.49995539000378741434e+00
  -3.49995289093396211300e+00
  -3.49995003276622451693e+00
  -3.49994674824861196072e+00
  -3.49994295212543127249e+00
  -3.49993853484933747922e+00
  -3.49993335346971878863e+00
</dep>
<dep Uin.Vt time>
  +2.00000000000000000000e+00
  +2.00634239196565644647e+00
  +2.01265924535737505963e+00
  +2.01892512443604088546e+00
  +2.02511479871810795572e+00
  +2.03120334456984874549e+00
  +2.03716624556603287388e+00
  +2.04297949120891697561e+00
  +2.04861967361004682076e+00
  +2.05406408174555954460e+00
  +2.05929079290546424019e+00
  +2.06427876096865414723e+00
  +2.06900790114821120369e+00
  +2.07345917086575326493e+00
  +2.07765345590004635312e+00
  +2.08323835347703312237e+00
  +2.08655395225531359316e+00
  +2.08952796212678215682e+00
  +2.09214864603317085567e+00
  +2.09341478602651065444e+00
  +2.09549022414440733186e+00
  +2.09718115683235417634e+00
  +2.09848077530122090195e+00
  +2.09938384644612519025e+00
  +2.09988673391830094062e+00
  +2.09998741276738742911e+00
  +2.09968547759519408302e+00
  +2.09898214418809336834e+00
  +2.09788024462147770777e+00
  +2.09638421585599399322e+00
  +2.09450008187146696770e+00
  +2.09223542941045792531e+00
  +2.08959937742913348657e+00
  +2.08660254037844383745e+00
  +2.08325698546347704010e+00
  +2.07957618405308330978e+00
  +2.07557495743542563815e+00
  +2.07126941713788648158e+00
  +2.06667690005162896227e+00
  +2.06181589862206049446e+00
  +2.05670598638627710741e+00
  +2.05136773915734060836e+00
  +2.04582265217274095193e+00
  +2.04009305354066139415e+00
  +2.03420201433256675472e+00
  +2.02817325568414297265e+00
  +2.02203105327865406693e+00
  +2.01580013959733506113e+00
  +2.00950560433041847119e+00
  +2.00317279334980691274e+00
  +1.99682720665019330930e+00
  +1.99049439566958175085e+00
  +1.98419986040266493887e+00
  +1.97796894672134593307e+00
  +1.97182674431585702735e+00
  +1.96579798566743324528e+00
  +1.95990694645933860585e+00
  +1.95417734782725882603e+00
  +1.94863226084265939164e+00
  +1.94329401361372289259e+00
